[2024-Nov-21 10:14:08] [debug] --------------------------------------------------------------------------------
[2024-Nov-21 10:14:09] [debug] nrfjprog --recover --log 
[2024-Nov-21 10:14:09] [debug] nrfjprog version 10.24.2 external
[2024-Nov-21 10:14:09] [debug] --------------------------------------------------------------------------------
[2024-Nov-21 10:14:09] [ info] Load library at /Applications/Nordic Semiconductor/lib/libnrfjprogdll.dylib.
[2024-Nov-21 10:14:09] [ info] Library loaded, loading member functions.
[2024-Nov-21 10:14:09] [ info] Member functions succesfully loaded.
[2024-Nov-21 10:14:09] [debug] [ Client] - open
[2024-Nov-21 10:14:09] [debug] [ Client] - start
[2024-Nov-21 10:14:09] [ info] [ Client] - stdout: Jlinkarm nRF Worker ready. Handling sequence ee58e731-de00-43fe-a022-363b8be06b14.
[2024-Nov-21 10:14:09] [trace] [ Client] - Command open executed for 85 milliseconds with result 0
[2024-Nov-21 10:14:09] [debug] [ Client] - config
[2024-Nov-21 10:14:09] [trace] [ Client] - Command config executed for 6 milliseconds with result 0
[2024-Nov-21 10:14:09] [debug] [ Client] - enum_emu_snr
[2024-Nov-21 10:14:09] [debug] [SeggerBackend] - Logger sink registered in Segger backend logger
[2024-Nov-21 10:14:09] [debug] [  JLink] - Logger sink registered in JLink logger
[2024-Nov-21 10:14:09] [debug] [  nRFXX] - open
[2024-Nov-21 10:14:09] [debug] [  nRFXX] - just_check_family
[2024-Nov-21 10:14:09] [debug] [SeggerBackend] - open_dll
[2024-Nov-21 10:14:09] [debug] [SeggerBackend] - No J-Link DLL path was provided. Attempting to auto detect.
[2024-Nov-21 10:14:09] [ info] [SeggerBackend] - Load library at /Applications/SEGGER/JLink/libjlinkarm.dylib.
[2024-Nov-21 10:14:09] [ info] [SeggerBackend] - Library loaded, loading member functions.
[2024-Nov-21 10:14:09] [ info] [SeggerBackend] - Member functions succesfully loaded.
[2024-Nov-21 10:14:09] [debug] [SeggerBackend] - Set batch mode
[2024-Nov-21 10:14:09] [debug] [SeggerBackend] - dll_version
[2024-Nov-21 10:14:09] [ info] [SeggerBackend] - Segger dll version 7.94.e loaded.
[2024-Nov-21 10:14:09] [trace] [ Worker] - Command open executed for 12 milliseconds with result 0
[2024-Nov-21 10:14:09] [debug] [  nRFXX] - config
[2024-Nov-21 10:14:09] [trace] [ Client] - Command enum_emu_con_info executed for 6 milliseconds with result 0
[2024-Nov-21 10:14:09] [debug] [ Client] - connect_to_emu_with_snr
[2024-Nov-21 10:14:09] [debug] [SeggerBackend] - enum_emu_snr
[2024-Nov-21 10:14:09] [trace] [ Worker] - Command config executed for 5 milliseconds with result 0
[2024-Nov-21 10:14:09] [debug] [  nRFXX] - enum_emu_con_info
[2024-Nov-21 10:14:09] [debug] [SeggerBackend] - is_connected_to_emu
[2024-Nov-21 10:14:09] [debug] [SeggerBackend] - enum_emu_con_info
[2024-Nov-21 10:14:09] [debug] [SeggerBackend] - is_connected_to_emu
[2024-Nov-21 10:14:09] [trace] [ Worker] - Command enum_emu_con_info executed for 0 milliseconds with result 0
[2024-Nov-21 10:14:09] [debug] [  nRFXX] - connect_to_emu_with_snr
[2024-Nov-21 10:14:09] [debug] [SeggerBackend] - is_connected_to_emu
[2024-Nov-21 10:14:09] [debug] [SeggerBackend] - connect_to_emu_with_snr
[2024-Nov-21 10:14:09] [debug] [SeggerBackend] - is_connected_to_emu
[2024-Nov-21 10:14:09] [debug] [SeggerBackend] - ---just_enum_emu_snr
[2024-Nov-21 10:14:09] [debug] [SeggerBackend] - ---just_get_num_emus
[2024-Nov-21 10:14:09] [debug] [SeggerBackend] - ---just_connect_to_emu_with_snr
[2024-Nov-21 10:14:09] [debug] [SeggerBackend] - ---just_connect_to_emu_without_snr
[2024-Nov-21 10:14:09] [debug] [SeggerBackend] - Segger logging enabled.
[2024-Nov-21 10:14:09] [trace] [  JLink] - Firmware: J-Link OB-nRF5340-NordicSemi compiled Oct 30 2023 12:13:06
[2024-Nov-21 10:14:09] [trace] [  JLink] - Firmware: J-Link OB-nRF5340-NordicSemi compiled Oct 30 2023 12:13:06
[2024-Nov-21 10:14:09] [trace] [  JLink] - Hardware: V1.00
[2024-Nov-21 10:14:09] [trace] [  JLink] - S/N: 1050034622
[2024-Nov-21 10:14:09] [trace] [  JLink] - OEM: SEGGER
[2024-Nov-21 10:14:09] [trace] [  JLink] - Feature(s): RDI, FlashBP, FlashDL, JFlash, GDB
[2024-Nov-21 10:14:09] [trace] [  JLink] - Bootloader: 2021 May 18
[2024-Nov-21 10:14:09] [trace] [  JLink] - USB speed mode: Full speed (12 MBit/s)
[2024-Nov-21 10:14:09] [trace] [  JLink] - TELNET listener socket opened on port 19021
[2024-Nov-21 10:14:09] [trace] [  JLink] - WEBSRV WEBSRV_Init(): Starting webserver thread(s)
[2024-Nov-21 10:14:09] [trace] [  JLink] - WEBSRV Webserver running on local port 19080
[2024-Nov-21 10:14:09] [trace] [  JLink] - Looking for J-Link GUI Server exe at: /Applications/SEGGER/JLink_V794e/JLinkGUIServerExe 
[2024-Nov-21 10:14:09] [trace] [  JLink] - Forking J-Link GUI Server: /Applications/SEGGER/JLink_V794e/JLinkGUIServerExe 
[2024-Nov-21 10:14:10] [trace] [  JLink] - J-Link GUI Server info: "J-Link GUI server V7.94e " 
[2024-Nov-21 10:14:10] [trace] [  JLink] - - 1135.847ms returns "O.K."  
[2024-Nov-21 10:14:10] [trace] [  JLink] - JLINK_HasError()  
[2024-Nov-21 10:14:10] [trace] [  JLink] - JLINK_Lock()  
[2024-Nov-21 10:14:10] [trace] [  JLink] - JLINK_ExecCommand("SetRestartOnClose = 0", ...).   
[2024-Nov-21 10:14:10] [trace] [  JLink] - - 0.148ms returns 0x01  
[2024-Nov-21 10:14:10] [trace] [  JLink] - JLINK_HasError()  
[2024-Nov-21 10:14:10] [trace] [  JLink] - JLINK_ExecCommand("DisableFlashDL", ...).   
[2024-Nov-21 10:14:10] [trace] [  JLink] - - 0.001ms returns 0x00  
[2024-Nov-21 10:14:10] [trace] [  JLink] - JLINK_HasError()  
[2024-Nov-21 10:14:10] [trace] [  JLink] - JLINK_ExecCommand("ExcludeFlashCacheRange 0x0-0xFFFFFFFF", ...).   
[2024-Nov-21 10:14:10] [trace] [  JLink] - - 0.012ms returns 0x00  
[2024-Nov-21 10:14:10] [trace] [  JLink] - JLINK_HasError()  
[2024-Nov-21 10:14:10] [trace] [  JLink] - JLINK_SetHookUnsecureDialog  
[2024-Nov-21 10:14:10] [trace] [  JLink] - JLINK_SetHookUnsecureDialog(...)
[2024-Nov-21 10:14:10] [trace] [  JLink] - - 0.003ms returns 0  
[2024-Nov-21 10:14:10] [trace] [  JLink] - JLINK_HasError()  
[2024-Nov-21 10:14:10] [trace] [  JLink] - JLINK_TIF_Select(JLINKARM_TIF_SWD)  
[2024-Nov-21 10:14:10] [trace] [  JLink] - - 0.621ms returns 0x00  
[2024-Nov-21 10:14:10] [trace] [  JLink] - JLINK_HasError()  
[2024-Nov-21 10:14:10] [trace] [  JLink] - JLINK_GetSpeedInfo()  
[2024-Nov-21 10:14:10] [trace] [  JLink] - 128000000 Hz / n, n >= 64
[2024-Nov-21 10:14:10] [trace] [  JLink] - - 0.003ms  
[2024-Nov-21 10:14:10] [trace] [  JLink] - JLINK_HasError()  
[2024-Nov-21 10:14:10] [debug] [SeggerBackend] - Connected emulator supports SWD speeds up to 2000kHz
[2024-Nov-21 10:14:10] [trace] [  JLink] - JLINK_SetSpeed(2000)  
[2024-Nov-21 10:14:10] [trace] [  JLink] - - 0.237ms  
[2024-Nov-21 10:14:10] [trace] [  JLink] - JLINK_HasError()  
[2024-Nov-21 10:14:10] [trace] [  JLink] - JLINK_GetSpeed()  
[2024-Nov-21 10:14:10] [trace] [  JLink] - - 0.001ms returns 2000  
[2024-Nov-21 10:14:10] [trace] [  JLink] - JLINK_HasError()  
[2024-Nov-21 10:14:10] [debug] [SeggerBackend] - SWD clock set to 2000kHz
[2024-Nov-21 10:14:10] [trace] [  JLink] - JLINK_GetSN()  
[2024-Nov-21 10:14:10] [trace] [  JLink] - - 0.001ms returns 1050034622  
[2024-Nov-21 10:14:10] [trace] [  JLink] - JLINK_HasError()  
[2024-Nov-21 10:14:10] [trace] [  JLink] - - 0.008ms  
[2024-Nov-21 10:14:10] [debug] [  nRFXX] - read_device_family
[2024-Nov-21 10:14:10] [debug] [  nRFXX] - read_device_family
[2024-Nov-21 10:14:10] [debug] [SeggerBackend] - is_connected_to_emu
[2024-Nov-21 10:14:10] [trace] [  JLink] - JLINK_IsOpen()  
[2024-Nov-21 10:14:10] [trace] [  JLink] - - 0.001ms returns 0x01  
[2024-Nov-21 10:14:10] [trace] [  JLink] - JLINK_HasError()  
[2024-Nov-21 10:14:10] [trace] [  JLink] - JLINK_Lock()  
[2024-Nov-21 10:14:10] [debug] [SeggerBackend] - is_connected_to_emu
[2024-Nov-21 10:14:10] [debug] [SeggerBackend] - read_debug_port_idr
[2024-Nov-21 10:14:10] [debug] [SeggerBackend] - read_debug_port_register
[2024-Nov-21 10:14:10] [debug] [SeggerBackend] - ---just_read_debug_port_register
[2024-Nov-21 10:14:10] [debug] [SeggerBackend] - coresight_configure
[2024-Nov-21 10:14:10] [trace] [  JLink] - JLINK_GetHWStatus(...)  
[2024-Nov-21 10:14:10] [trace] [  JLink] - - 0.114ms returns 0  
[2024-Nov-21 10:14:10] [trace] [  JLink] - JLINK_HasError()  
[2024-Nov-21 10:14:10] [trace] [  JLink] - JLINK_CORESIGHT_Configure()  
[2024-Nov-21 10:14:10] [trace] [  JLink] - - 0.375ms returns 0  
[2024-Nov-21 10:14:10] [trace] [  JLink] - JLINK_HasError()  
[2024-Nov-21 10:14:10] [debug] [SeggerBackend] - read_debug_port_idr
[2024-Nov-21 10:14:10] [debug] [SeggerBackend] - read_debug_port_register
[2024-Nov-21 10:14:10] [debug] [SeggerBackend] - ---just_read_debug_port_register
[2024-Nov-21 10:14:10] [trace] [ Client] - Command connect_to_emu_with_snr executed for 1202 milliseconds with result 0
[2024-Nov-21 10:14:10] [debug] [ Client] - read_connected_emu_snr
[2024-Nov-21 10:14:10] [debug] [SeggerBackend] - ---just_select_debug_port_register
[2024-Nov-21 10:14:10] [debug] [SeggerBackend] - Select AP 255, DP Bank 0, AP Bank 255
[2024-Nov-21 10:14:10] [trace] [  JLink] - JLINK_CORESIGHT_WriteAPDPReg(DP reg 0x02, 0x00000000)  
[2024-Nov-21 10:14:10] [trace] [  JLink] - - 0.177ms returns 0  
[2024-Nov-21 10:14:10] [trace] [  JLink] - JLINK_HasError()  
[2024-Nov-21 10:14:10] [trace] [  JLink] - JLINK_CORESIGHT_ReadAPDPReg(DP reg 0x00)  
[2024-Nov-21 10:14:10] [trace] [  JLink] - Value=0x6BA02477
[2024-Nov-21 10:14:10] [trace] [  JLink] - - 0.281ms returns 0  
[2024-Nov-21 10:14:10] [trace] [  JLink] - JLINK_HasError()  
[2024-Nov-21 10:14:10] [debug] [SeggerBackend] - ---just_select_debug_port_register
[2024-Nov-21 10:14:10] [trace] [  JLink] - JLINK_CORESIGHT_ReadAPDPReg(DP reg 0x00)  
[2024-Nov-21 10:14:10] [trace] [  JLink] - Value=0x6BA02477
[2024-Nov-21 10:14:10] [trace] [  JLink] - - 0.178ms returns 0  
[2024-Nov-21 10:14:10] [trace] [  JLink] - JLINK_HasError()  
[2024-Nov-21 10:14:10] [debug] [SeggerBackend] - read_access_port_idr
[2024-Nov-21 10:14:10] [debug] [SeggerBackend] - read_access_port_register
[2024-Nov-21 10:14:10] [debug] [SeggerBackend] - ---just_read_access_port_register
[2024-Nov-21 10:14:10] [debug] [SeggerBackend] - ---just_is_debug_region_powered
[2024-Nov-21 10:14:10] [debug] [SeggerBackend] - ---just_read_debug_port_register
[2024-Nov-21 10:14:10] [debug] [SeggerBackend] - ---just_select_debug_port_register
[2024-Nov-21 10:14:10] [trace] [  JLink] - JLINK_CORESIGHT_ReadAPDPReg(DP reg 0x01)  
[2024-Nov-21 10:14:10] [trace] [  JLink] - Value=0xF0000000
[2024-Nov-21 10:14:10] [trace] [  JLink] - - 0.256ms returns 0  
[2024-Nov-21 10:14:10] [trace] [  JLink] - JLINK_HasError()  
[2024-Nov-21 10:14:10] [debug] [SeggerBackend] - ---just_select_access_port_register
[2024-Nov-21 10:14:10] [debug] [SeggerBackend] - Select AP 0, DP Bank 0, AP Bank 15
[2024-Nov-21 10:14:10] [trace] [  JLink] - JLINK_CORESIGHT_WriteAPDPReg(DP reg 0x02, 0x000000F0)  
[2024-Nov-21 10:14:10] [trace] [  JLink] - - 0.180ms returns 0  
[2024-Nov-21 10:14:10] [trace] [  JLink] - JLINK_HasError()  
[2024-Nov-21 10:14:10] [trace] [  JLink] - JLINK_CORESIGHT_ReadAPDPReg(AP reg 0x03)  
[2024-Nov-21 10:14:10] [trace] [  JLink] - Value=0x84770001
[2024-Nov-21 10:14:10] [trace] [  JLink] - - 0.226ms returns 0  
[2024-Nov-21 10:14:10] [trace] [  JLink] - JLINK_HasError()  
[2024-Nov-21 10:14:10] [debug] [SeggerBackend] - read_access_port_register
[2024-Nov-21 10:14:10] [debug] [SeggerBackend] - ---just_read_access_port_register
[2024-Nov-21 10:14:10] [debug] [SeggerBackend] - ---just_select_access_port_register
[2024-Nov-21 10:14:10] [debug] [SeggerBackend] - Select AP 0, DP Bank 0, AP Bank 0
[2024-Nov-21 10:14:10] [trace] [  JLink] - JLINK_CORESIGHT_WriteAPDPReg(DP reg 0x02, 0x00000000)  
[2024-Nov-21 10:14:10] [trace] [  JLink] - - 0.224ms returns 0  
[2024-Nov-21 10:14:10] [trace] [  JLink] - JLINK_HasError()  
[2024-Nov-21 10:14:10] [trace] [  JLink] - JLINK_CORESIGHT_ReadAPDPReg(AP reg 0x00)  
[2024-Nov-21 10:14:10] [trace] [  JLink] - Value=0x43000002
[2024-Nov-21 10:14:10] [trace] [  JLink] - - 0.197ms returns 0  
[2024-Nov-21 10:14:10] [trace] [  JLink] - JLINK_HasError()  
[2024-Nov-21 10:14:10] [debug] [SeggerBackend] - read_access_port_idr
[2024-Nov-21 10:14:10] [debug] [SeggerBackend] - read_access_port_register
[2024-Nov-21 10:14:10] [debug] [SeggerBackend] - ---just_read_access_port_register
[2024-Nov-21 10:14:10] [debug] [SeggerBackend] - ---just_select_access_port_register
[2024-Nov-21 10:14:10] [debug] [SeggerBackend] - Select AP 1, DP Bank 0, AP Bank 15
[2024-Nov-21 10:14:10] [trace] [  JLink] - JLINK_CORESIGHT_WriteAPDPReg(DP reg 0x02, 0x010000F0)  
[2024-Nov-21 10:14:10] [trace] [  JLink] - - 0.153ms returns 0  
[2024-Nov-21 10:14:10] [trace] [  JLink] - JLINK_HasError()  
[2024-Nov-21 10:14:10] [trace] [  JLink] - JLINK_CORESIGHT_ReadAPDPReg(AP reg 0x03)  
[2024-Nov-21 10:14:10] [trace] [  JLink] - Value=0x84770001
[2024-Nov-21 10:14:10] [trace] [  JLink] - - 0.187ms returns 0  
[2024-Nov-21 10:14:10] [trace] [  JLink] - JLINK_HasError()  
[2024-Nov-21 10:14:10] [debug] [SeggerBackend] - read_access_port_register
[2024-Nov-21 10:14:10] [debug] [SeggerBackend] - ---just_read_access_port_register
[2024-Nov-21 10:14:10] [debug] [SeggerBackend] - ---just_select_access_port_register
[2024-Nov-21 10:14:10] [debug] [SeggerBackend] - Select AP 1, DP Bank 0, AP Bank 0
[2024-Nov-21 10:14:10] [trace] [  JLink] - JLINK_CORESIGHT_WriteAPDPReg(DP reg 0x02, 0x01000000)  
[2024-Nov-21 10:14:10] [trace] [  JLink] - - 0.181ms returns 0  
[2024-Nov-21 10:14:10] [trace] [  JLink] - JLINK_HasError()  
[2024-Nov-21 10:14:10] [trace] [  JLink] - JLINK_CORESIGHT_ReadAPDPReg(AP reg 0x00)  
[2024-Nov-21 10:14:10] [trace] [  JLink] - Value=0x43000002
[2024-Nov-21 10:14:10] [trace] [  JLink] - - 0.272ms returns 0  
[2024-Nov-21 10:14:10] [trace] [  JLink] - JLINK_HasError()  
[2024-Nov-21 10:14:10] [debug] [SeggerBackend] - read_access_port_idr
[2024-Nov-21 10:14:10] [debug] [SeggerBackend] - read_access_port_register
[2024-Nov-21 10:14:10] [debug] [SeggerBackend] - ---just_read_access_port_register
[2024-Nov-21 10:14:10] [debug] [SeggerBackend] - ---just_select_access_port_register
[2024-Nov-21 10:14:10] [debug] [SeggerBackend] - Select AP 2, DP Bank 0, AP Bank 15
[2024-Nov-21 10:14:10] [trace] [  JLink] - JLINK_CORESIGHT_WriteAPDPReg(DP reg 0x02, 0x020000F0)  
[2024-Nov-21 10:14:10] [trace] [  JLink] - - 0.161ms returns 0  
[2024-Nov-21 10:14:10] [trace] [  JLink] - JLINK_HasError()  
[2024-Nov-21 10:14:10] [trace] [  JLink] - JLINK_CORESIGHT_ReadAPDPReg(AP reg 0x03)  
[2024-Nov-21 10:14:10] [trace] [  JLink] - Value=0x12880000
[2024-Nov-21 10:14:10] [trace] [  JLink] - - 0.191ms returns 0  
[2024-Nov-21 10:14:10] [trace] [  JLink] - JLINK_HasError()  
[2024-Nov-21 10:14:10] [debug] [SeggerBackend] - read_access_port_register
[2024-Nov-21 10:14:10] [debug] [SeggerBackend] - ---just_read_access_port_register
[2024-Nov-21 10:14:10] [debug] [SeggerBackend] - ---just_select_access_port_register
[2024-Nov-21 10:14:10] [debug] [SeggerBackend] - Select AP 2, DP Bank 0, AP Bank 0
[2024-Nov-21 10:14:10] [trace] [  JLink] - JLINK_CORESIGHT_WriteAPDPReg(DP reg 0x02, 0x02000000)  
[2024-Nov-21 10:14:10] [trace] [  JLink] - - 0.163ms returns 0  
[2024-Nov-21 10:14:10] [trace] [  JLink] - JLINK_HasError()  
[2024-Nov-21 10:14:10] [trace] [  JLink] - JLINK_CORESIGHT_ReadAPDPReg(AP reg 0x00)  
[2024-Nov-21 10:14:10] [trace] [  JLink] - Value=0x00000000
[2024-Nov-21 10:14:10] [trace] [  JLink] - - 0.198ms returns 0  
[2024-Nov-21 10:14:10] [trace] [  JLink] - JLINK_HasError()  
[2024-Nov-21 10:14:10] [debug] [SeggerBackend] - read_access_port_idr
[2024-Nov-21 10:14:10] [debug] [SeggerBackend] - read_access_port_register
[2024-Nov-21 10:14:10] [debug] [SeggerBackend] - ---just_read_access_port_register
[2024-Nov-21 10:14:10] [debug] [SeggerBackend] - ---just_select_access_port_register
[2024-Nov-21 10:14:10] [debug] [SeggerBackend] - Select AP 3, DP Bank 0, AP Bank 15
[2024-Nov-21 10:14:10] [trace] [  JLink] - JLINK_CORESIGHT_WriteAPDPReg(DP reg 0x02, 0x030000F0)  
[2024-Nov-21 10:14:10] [trace] [  JLink] - - 0.226ms returns 0  
[2024-Nov-21 10:14:10] [trace] [  JLink] - JLINK_HasError()  
[2024-Nov-21 10:14:10] [trace] [  JLink] - JLINK_CORESIGHT_ReadAPDPReg(AP reg 0x03)  
[2024-Nov-21 10:14:10] [trace] [ Client] - Command read_connected_emu_snr executed for 6 milliseconds with result 0
[2024-Nov-21 10:14:10] [debug] [ Client] - read_device_family
[2024-Nov-21 10:14:10] [trace] [ Client] - Command read_device_family executed for 6 milliseconds with result 0
[2024-Nov-21 10:14:10] [debug] [ Client] - select_family
[2024-Nov-21 10:14:10] [trace] [  JLink] - Value=0x12880000
[2024-Nov-21 10:14:10] [trace] [  JLink] - - 0.185ms returns 0  
[2024-Nov-21 10:14:10] [trace] [  JLink] - JLINK_HasError()  
[2024-Nov-21 10:14:10] [debug] [SeggerBackend] - read_access_port_register
[2024-Nov-21 10:14:10] [debug] [SeggerBackend] - ---just_read_access_port_register
[2024-Nov-21 10:14:10] [debug] [SeggerBackend] - ---just_select_access_port_register
[2024-Nov-21 10:14:10] [debug] [SeggerBackend] - Select AP 3, DP Bank 0, AP Bank 0
[2024-Nov-21 10:14:10] [trace] [  JLink] - JLINK_CORESIGHT_WriteAPDPReg(DP reg 0x02, 0x03000000)  
[2024-Nov-21 10:14:10] [trace] [  JLink] - - 0.159ms returns 0  
[2024-Nov-21 10:14:10] [trace] [  JLink] - JLINK_HasError()  
[2024-Nov-21 10:14:10] [trace] [  JLink] - JLINK_CORESIGHT_ReadAPDPReg(AP reg 0x00)  
[2024-Nov-21 10:14:10] [trace] [  JLink] - Value=0x00000000
[2024-Nov-21 10:14:10] [trace] [  JLink] - - 0.178ms returns 0  
[2024-Nov-21 10:14:10] [trace] [  JLink] - JLINK_HasError()  
[2024-Nov-21 10:14:10] [debug] [SeggerBackend] - read_access_port_idr
[2024-Nov-21 10:14:10] [debug] [SeggerBackend] - read_access_port_register
[2024-Nov-21 10:14:10] [debug] [SeggerBackend] - ---just_read_access_port_register
[2024-Nov-21 10:14:10] [debug] [SeggerBackend] - ---just_select_access_port_register
[2024-Nov-21 10:14:10] [debug] [SeggerBackend] - Select AP 4, DP Bank 0, AP Bank 15
[2024-Nov-21 10:14:10] [trace] [  JLink] - JLINK_CORESIGHT_WriteAPDPReg(DP reg 0x02, 0x040000F0)  
[2024-Nov-21 10:14:10] [trace] [  JLink] - - 0.219ms returns 0  
[2024-Nov-21 10:14:10] [trace] [  JLink] - JLINK_HasError()  
[2024-Nov-21 10:14:10] [trace] [ Client] - Command select_family executed for 12 milliseconds with result 0
[2024-Nov-21 10:14:10] [debug] [ Client] - recover
[2024-Nov-21 10:14:10] [trace] [  JLink] - JLINK_CORESIGHT_ReadAPDPReg(AP reg 0x03)  
[2024-Nov-21 10:14:10] [trace] [  JLink] - Value=0x00000000
[2024-Nov-21 10:14:10] [trace] [  JLink] - - 0.257ms returns 0  
[2024-Nov-21 10:14:10] [trace] [  JLink] - JLINK_HasError()  
[2024-Nov-21 10:14:10] [debug] [SeggerBackend] - read_access_port_register
[2024-Nov-21 10:14:10] [debug] [SeggerBackend] - ---just_read_access_port_register
[2024-Nov-21 10:14:10] [debug] [SeggerBackend] - ---just_select_access_port_register
[2024-Nov-21 10:14:10] [debug] [SeggerBackend] - Select AP 4, DP Bank 0, AP Bank 0
[2024-Nov-21 10:14:10] [trace] [  JLink] - JLINK_CORESIGHT_WriteAPDPReg(DP reg 0x02, 0x04000000)  
[2024-Nov-21 10:14:10] [trace] [  JLink] - - 0.159ms returns 0  
[2024-Nov-21 10:14:10] [trace] [  JLink] - JLINK_HasError()  
[2024-Nov-21 10:14:10] [trace] [  JLink] - JLINK_CORESIGHT_ReadAPDPReg(AP reg 0x00)  
[2024-Nov-21 10:14:10] [trace] [  JLink] - Value=0x00000000
[2024-Nov-21 10:14:10] [trace] [  JLink] - - 0.182ms returns 0  
[2024-Nov-21 10:14:10] [trace] [  JLink] - JLINK_HasError()  
[2024-Nov-21 10:14:10] [debug] [SeggerBackend] - read_access_port_idr
[2024-Nov-21 10:14:10] [debug] [SeggerBackend] - read_access_port_register
[2024-Nov-21 10:14:10] [debug] [SeggerBackend] - ---just_read_access_port_register
[2024-Nov-21 10:14:10] [debug] [SeggerBackend] - ---just_select_access_port_register
[2024-Nov-21 10:14:10] [debug] [SeggerBackend] - Select AP 5, DP Bank 0, AP Bank 15
[2024-Nov-21 10:14:10] [trace] [  JLink] - JLINK_CORESIGHT_WriteAPDPReg(DP reg 0x02, 0x050000F0)  
[2024-Nov-21 10:14:10] [trace] [  JLink] - - 0.147ms returns 0  
[2024-Nov-21 10:14:10] [trace] [  JLink] - JLINK_HasError()  
[2024-Nov-21 10:14:10] [trace] [  JLink] - JLINK_CORESIGHT_ReadAPDPReg(AP reg 0x03)  
[2024-Nov-21 10:14:10] [trace] [  JLink] - Value=0x00000000
[2024-Nov-21 10:14:10] [trace] [  JLink] - - 0.226ms returns 0  
[2024-Nov-21 10:14:10] [trace] [  JLink] - JLINK_HasError()  
[2024-Nov-21 10:14:10] [debug] [SeggerBackend] - read_access_port_register
[2024-Nov-21 10:14:10] [debug] [SeggerBackend] - ---just_read_access_port_register
[2024-Nov-21 10:14:10] [debug] [SeggerBackend] - ---just_select_access_port_register
[2024-Nov-21 10:14:10] [debug] [SeggerBackend] - Select AP 5, DP Bank 0, AP Bank 0
[2024-Nov-21 10:14:10] [trace] [  JLink] - JLINK_CORESIGHT_WriteAPDPReg(DP reg 0x02, 0x05000000)  
[2024-Nov-21 10:14:10] [trace] [  JLink] - - 0.227ms returns 0  
[2024-Nov-21 10:14:10] [trace] [  JLink] - JLINK_HasError()  
[2024-Nov-21 10:14:10] [trace] [  JLink] - JLINK_CORESIGHT_ReadAPDPReg(AP reg 0x00)  
[2024-Nov-21 10:14:10] [trace] [  JLink] - Value=0x00000000
[2024-Nov-21 10:14:10] [trace] [  JLink] - - 0.175ms returns 0  
[2024-Nov-21 10:14:10] [trace] [  JLink] - JLINK_HasError()  
[2024-Nov-21 10:14:10] [debug] [SeggerBackend] - read_access_port_idr
[2024-Nov-21 10:14:10] [debug] [SeggerBackend] - read_access_port_register
[2024-Nov-21 10:14:10] [debug] [SeggerBackend] - ---just_read_access_port_register
[2024-Nov-21 10:14:10] [debug] [SeggerBackend] - ---just_select_access_port_register
[2024-Nov-21 10:14:10] [debug] [SeggerBackend] - Select AP 6, DP Bank 0, AP Bank 15
[2024-Nov-21 10:14:10] [trace] [  JLink] - JLINK_CORESIGHT_WriteAPDPReg(DP reg 0x02, 0x060000F0)  
[2024-Nov-21 10:14:10] [trace] [  JLink] - - 0.161ms returns 0  
[2024-Nov-21 10:14:10] [trace] [  JLink] - JLINK_HasError()  
[2024-Nov-21 10:14:10] [trace] [  JLink] - JLINK_CORESIGHT_ReadAPDPReg(AP reg 0x03)  
[2024-Nov-21 10:14:10] [trace] [  JLink] - Value=0x00000000
[2024-Nov-21 10:14:10] [trace] [  JLink] - - 0.181ms returns 0  
[2024-Nov-21 10:14:10] [trace] [  JLink] - JLINK_HasError()  
[2024-Nov-21 10:14:10] [debug] [SeggerBackend] - read_access_port_register
[2024-Nov-21 10:14:10] [debug] [SeggerBackend] - ---just_read_access_port_register
[2024-Nov-21 10:14:10] [debug] [SeggerBackend] - ---just_select_access_port_register
[2024-Nov-21 10:14:10] [debug] [SeggerBackend] - Select AP 6, DP Bank 0, AP Bank 0
[2024-Nov-21 10:14:10] [trace] [  JLink] - JLINK_CORESIGHT_WriteAPDPReg(DP reg 0x02, 0x06000000)  
[2024-Nov-21 10:14:10] [trace] [  JLink] - - 0.227ms returns 0  
[2024-Nov-21 10:14:10] [trace] [  JLink] - JLINK_HasError()  
[2024-Nov-21 10:14:10] [trace] [  JLink] - JLINK_CORESIGHT_ReadAPDPReg(AP reg 0x00)  
[2024-Nov-21 10:14:10] [trace] [  JLink] - Value=0x00000000
[2024-Nov-21 10:14:10] [trace] [  JLink] - - 0.254ms returns 0  
[2024-Nov-21 10:14:10] [trace] [  JLink] - JLINK_HasError()  
[2024-Nov-21 10:14:10] [debug] [SeggerBackend] - read_access_port_idr
[2024-Nov-21 10:14:10] [debug] [SeggerBackend] - read_access_port_register
[2024-Nov-21 10:14:10] [debug] [SeggerBackend] - ---just_read_access_port_register
[2024-Nov-21 10:14:10] [debug] [SeggerBackend] - ---just_select_access_port_register
[2024-Nov-21 10:14:10] [debug] [SeggerBackend] - Select AP 7, DP Bank 0, AP Bank 15
[2024-Nov-21 10:14:10] [trace] [  JLink] - JLINK_CORESIGHT_WriteAPDPReg(DP reg 0x02, 0x070000F0)  
[2024-Nov-21 10:14:10] [trace] [  JLink] - - 0.160ms returns 0  
[2024-Nov-21 10:14:10] [trace] [  JLink] - JLINK_HasError()  
[2024-Nov-21 10:14:10] [trace] [  JLink] - JLINK_CORESIGHT_ReadAPDPReg(AP reg 0x03)  
[2024-Nov-21 10:14:10] [trace] [  JLink] - Value=0x00000000
[2024-Nov-21 10:14:10] [trace] [  JLink] - - 0.200ms returns 0  
[2024-Nov-21 10:14:10] [trace] [  JLink] - JLINK_HasError()  
[2024-Nov-21 10:14:10] [debug] [SeggerBackend] - read_access_port_register
[2024-Nov-21 10:14:10] [debug] [SeggerBackend] - ---just_read_access_port_register
[2024-Nov-21 10:14:10] [debug] [SeggerBackend] - ---just_select_access_port_register
[2024-Nov-21 10:14:10] [debug] [SeggerBackend] - Select AP 7, DP Bank 0, AP Bank 0
[2024-Nov-21 10:14:10] [trace] [  JLink] - JLINK_CORESIGHT_WriteAPDPReg(DP reg 0x02, 0x07000000)  
[2024-Nov-21 10:14:10] [trace] [  JLink] - - 0.167ms returns 0  
[2024-Nov-21 10:14:10] [trace] [  JLink] - JLINK_HasError()  
[2024-Nov-21 10:14:10] [trace] [  JLink] - JLINK_CORESIGHT_ReadAPDPReg(AP reg 0x00)  
[2024-Nov-21 10:14:10] [trace] [  JLink] - Value=0x00000000
[2024-Nov-21 10:14:10] [trace] [  JLink] - - 0.186ms returns 0  
[2024-Nov-21 10:14:10] [trace] [  JLink] - JLINK_HasError()  
[2024-Nov-21 10:14:10] [debug] [SeggerBackend] - read_access_port_idr
[2024-Nov-21 10:14:10] [debug] [SeggerBackend] - read_access_port_register
[2024-Nov-21 10:14:10] [debug] [SeggerBackend] - ---just_read_access_port_register
[2024-Nov-21 10:14:10] [debug] [SeggerBackend] - ---just_select_access_port_register
[2024-Nov-21 10:14:10] [debug] [SeggerBackend] - Select AP 8, DP Bank 0, AP Bank 15
[2024-Nov-21 10:14:10] [trace] [  JLink] - JLINK_CORESIGHT_WriteAPDPReg(DP reg 0x02, 0x080000F0)  
[2024-Nov-21 10:14:10] [trace] [  JLink] - - 0.229ms returns 0  
[2024-Nov-21 10:14:10] [trace] [  JLink] - JLINK_HasError()  
[2024-Nov-21 10:14:10] [trace] [  JLink] - JLINK_CORESIGHT_ReadAPDPReg(AP reg 0x03)  
[2024-Nov-21 10:14:10] [trace] [  JLink] - Value=0x00000000
[2024-Nov-21 10:14:10] [trace] [  JLink] - - 0.184ms returns 0  
[2024-Nov-21 10:14:10] [trace] [  JLink] - JLINK_HasError()  
[2024-Nov-21 10:14:10] [debug] [SeggerBackend] - read_access_port_register
[2024-Nov-21 10:14:10] [debug] [SeggerBackend] - ---just_read_access_port_register
[2024-Nov-21 10:14:10] [debug] [SeggerBackend] - ---just_select_access_port_register
[2024-Nov-21 10:14:10] [debug] [SeggerBackend] - Select AP 8, DP Bank 0, AP Bank 0
[2024-Nov-21 10:14:10] [trace] [  JLink] - JLINK_CORESIGHT_WriteAPDPReg(DP reg 0x02, 0x08000000)  
[2024-Nov-21 10:14:10] [trace] [  JLink] - - 0.159ms returns 0  
[2024-Nov-21 10:14:10] [trace] [  JLink] - JLINK_HasError()  
[2024-Nov-21 10:14:10] [trace] [  JLink] - JLINK_CORESIGHT_ReadAPDPReg(AP reg 0x00)  
[2024-Nov-21 10:14:10] [trace] [  JLink] - Value=0x00000000
[2024-Nov-21 10:14:10] [trace] [  JLink] - - 0.194ms returns 0  
[2024-Nov-21 10:14:10] [trace] [  JLink] - JLINK_HasError()  
[2024-Nov-21 10:14:10] [debug] [SeggerBackend] - read_access_port_idr
[2024-Nov-21 10:14:10] [debug] [SeggerBackend] - read_access_port_register
[2024-Nov-21 10:14:10] [debug] [SeggerBackend] - ---just_read_access_port_register
[2024-Nov-21 10:14:10] [debug] [SeggerBackend] - ---just_select_access_port_register
[2024-Nov-21 10:14:10] [debug] [SeggerBackend] - Select AP 9, DP Bank 0, AP Bank 15
[2024-Nov-21 10:14:10] [trace] [  JLink] - JLINK_CORESIGHT_WriteAPDPReg(DP reg 0x02, 0x090000F0)  
[2024-Nov-21 10:14:10] [trace] [  JLink] - - 0.210ms returns 0  
[2024-Nov-21 10:14:10] [trace] [  JLink] - JLINK_HasError()  
[2024-Nov-21 10:14:10] [trace] [  JLink] - JLINK_CORESIGHT_ReadAPDPReg(AP reg 0x03)  
[2024-Nov-21 10:14:10] [trace] [  JLink] - Value=0x00000000
[2024-Nov-21 10:14:10] [trace] [  JLink] - - 0.260ms returns 0  
[2024-Nov-21 10:14:10] [trace] [  JLink] - JLINK_HasError()  
[2024-Nov-21 10:14:10] [debug] [SeggerBackend] - read_access_port_register
[2024-Nov-21 10:14:10] [debug] [SeggerBackend] - ---just_read_access_port_register
[2024-Nov-21 10:14:10] [debug] [SeggerBackend] - ---just_select_access_port_register
[2024-Nov-21 10:14:10] [debug] [SeggerBackend] - Select AP 9, DP Bank 0, AP Bank 0
[2024-Nov-21 10:14:10] [trace] [  JLink] - JLINK_CORESIGHT_WriteAPDPReg(DP reg 0x02, 0x09000000)  
[2024-Nov-21 10:14:10] [trace] [  JLink] - - 0.165ms returns 0  
[2024-Nov-21 10:14:10] [trace] [  JLink] - JLINK_HasError()  
[2024-Nov-21 10:14:10] [trace] [  JLink] - JLINK_CORESIGHT_ReadAPDPReg(AP reg 0x00)  
[2024-Nov-21 10:14:10] [trace] [  JLink] - Value=0x00000000
[2024-Nov-21 10:14:10] [trace] [  JLink] - - 0.193ms returns 0  
[2024-Nov-21 10:14:10] [trace] [  JLink] - JLINK_HasError()  
[2024-Nov-21 10:14:10] [debug] [SeggerBackend] - read_access_port_idr
[2024-Nov-21 10:14:10] [debug] [SeggerBackend] - read_access_port_register
[2024-Nov-21 10:14:10] [debug] [SeggerBackend] - ---just_read_access_port_register
[2024-Nov-21 10:14:10] [debug] [SeggerBackend] - ---just_select_access_port_register
[2024-Nov-21 10:14:10] [debug] [SeggerBackend] - Select AP 10, DP Bank 0, AP Bank 15
[2024-Nov-21 10:14:10] [trace] [  JLink] - JLINK_CORESIGHT_WriteAPDPReg(DP reg 0x02, 0x0A0000F0)  
[2024-Nov-21 10:14:10] [trace] [  JLink] - - 0.160ms returns 0  
[2024-Nov-21 10:14:10] [trace] [  JLink] - JLINK_HasError()  
[2024-Nov-21 10:14:10] [trace] [  JLink] - JLINK_CORESIGHT_ReadAPDPReg(AP reg 0x03)  
[2024-Nov-21 10:14:10] [trace] [  JLink] - Value=0x00000000
[2024-Nov-21 10:14:10] [trace] [  JLink] - - 0.192ms returns 0  
[2024-Nov-21 10:14:10] [trace] [  JLink] - JLINK_HasError()  
[2024-Nov-21 10:14:10] [debug] [SeggerBackend] - read_access_port_register
[2024-Nov-21 10:14:10] [debug] [SeggerBackend] - ---just_read_access_port_register
[2024-Nov-21 10:14:10] [debug] [SeggerBackend] - ---just_select_access_port_register
[2024-Nov-21 10:14:10] [debug] [SeggerBackend] - Select AP 10, DP Bank 0, AP Bank 0
[2024-Nov-21 10:14:10] [trace] [  JLink] - JLINK_CORESIGHT_WriteAPDPReg(DP reg 0x02, 0x0A000000)  
[2024-Nov-21 10:14:10] [trace] [  JLink] - - 0.217ms returns 0  
[2024-Nov-21 10:14:10] [trace] [  JLink] - JLINK_HasError()  
[2024-Nov-21 10:14:10] [trace] [  JLink] - JLINK_CORESIGHT_ReadAPDPReg(AP reg 0x00)  
[2024-Nov-21 10:14:10] [trace] [  JLink] - Value=0x00000000
[2024-Nov-21 10:14:10] [trace] [  JLink] - - 0.184ms returns 0  
[2024-Nov-21 10:14:10] [trace] [  JLink] - JLINK_HasError()  
[2024-Nov-21 10:14:10] [debug] [SeggerBackend] - read_access_port_idr
[2024-Nov-21 10:14:10] [debug] [SeggerBackend] - read_access_port_register
[2024-Nov-21 10:14:10] [debug] [SeggerBackend] - ---just_read_access_port_register
[2024-Nov-21 10:14:10] [debug] [SeggerBackend] - ---just_select_access_port_register
[2024-Nov-21 10:14:10] [debug] [SeggerBackend] - Select AP 11, DP Bank 0, AP Bank 15
[2024-Nov-21 10:14:10] [trace] [  JLink] - JLINK_CORESIGHT_WriteAPDPReg(DP reg 0x02, 0x0B0000F0)  
[2024-Nov-21 10:14:10] [trace] [  JLink] - - 0.163ms returns 0  
[2024-Nov-21 10:14:10] [trace] [  JLink] - JLINK_HasError()  
[2024-Nov-21 10:14:10] [trace] [  JLink] - JLINK_CORESIGHT_ReadAPDPReg(AP reg 0x03)  
[2024-Nov-21 10:14:10] [trace] [  JLink] - Value=0x00000000
[2024-Nov-21 10:14:10] [trace] [  JLink] - - 0.184ms returns 0  
[2024-Nov-21 10:14:10] [trace] [  JLink] - JLINK_HasError()  
[2024-Nov-21 10:14:10] [debug] [SeggerBackend] - read_access_port_register
[2024-Nov-21 10:14:10] [debug] [SeggerBackend] - ---just_read_access_port_register
[2024-Nov-21 10:14:10] [debug] [SeggerBackend] - ---just_select_access_port_register
[2024-Nov-21 10:14:10] [debug] [SeggerBackend] - Select AP 11, DP Bank 0, AP Bank 0
[2024-Nov-21 10:14:10] [trace] [  JLink] - JLINK_CORESIGHT_WriteAPDPReg(DP reg 0x02, 0x0B000000)  
[2024-Nov-21 10:14:10] [trace] [  JLink] - - 0.210ms returns 0  
[2024-Nov-21 10:14:10] [trace] [  JLink] - JLINK_HasError()  
[2024-Nov-21 10:14:10] [trace] [  JLink] - JLINK_CORESIGHT_ReadAPDPReg(AP reg 0x00)  
[2024-Nov-21 10:14:10] [trace] [  JLink] - Value=0x00000000
[2024-Nov-21 10:14:10] [trace] [  JLink] - - 0.259ms returns 0  
[2024-Nov-21 10:14:10] [trace] [  JLink] - JLINK_HasError()  
[2024-Nov-21 10:14:10] [debug] [SeggerBackend] - read_access_port_idr
[2024-Nov-21 10:14:10] [debug] [SeggerBackend] - read_access_port_register
[2024-Nov-21 10:14:10] [debug] [SeggerBackend] - ---just_read_access_port_register
[2024-Nov-21 10:14:10] [debug] [SeggerBackend] - ---just_select_access_port_register
[2024-Nov-21 10:14:10] [debug] [SeggerBackend] - Select AP 12, DP Bank 0, AP Bank 15
[2024-Nov-21 10:14:10] [trace] [  JLink] - JLINK_CORESIGHT_WriteAPDPReg(DP reg 0x02, 0x0C0000F0)  
[2024-Nov-21 10:14:10] [trace] [  JLink] - - 0.158ms returns 0  
[2024-Nov-21 10:14:10] [trace] [  JLink] - JLINK_HasError()  
[2024-Nov-21 10:14:10] [trace] [  JLink] - JLINK_CORESIGHT_ReadAPDPReg(AP reg 0x03)  
[2024-Nov-21 10:14:10] [trace] [  JLink] - Value=0x00000000
[2024-Nov-21 10:14:10] [trace] [  JLink] - - 0.186ms returns 0  
[2024-Nov-21 10:14:10] [trace] [  JLink] - JLINK_HasError()  
[2024-Nov-21 10:14:10] [debug] [SeggerBackend] - read_access_port_register
[2024-Nov-21 10:14:10] [debug] [SeggerBackend] - ---just_read_access_port_register
[2024-Nov-21 10:14:10] [debug] [SeggerBackend] - ---just_select_access_port_register
[2024-Nov-21 10:14:10] [debug] [SeggerBackend] - Select AP 12, DP Bank 0, AP Bank 0
[2024-Nov-21 10:14:10] [trace] [  JLink] - JLINK_CORESIGHT_WriteAPDPReg(DP reg 0x02, 0x0C000000)  
[2024-Nov-21 10:14:10] [trace] [  JLink] - - 0.161ms returns 0  
[2024-Nov-21 10:14:10] [trace] [  JLink] - JLINK_HasError()  
[2024-Nov-21 10:14:10] [trace] [  JLink] - JLINK_CORESIGHT_ReadAPDPReg(AP reg 0x00)  
[2024-Nov-21 10:14:10] [trace] [  JLink] - Value=0x00000000
[2024-Nov-21 10:14:10] [trace] [  JLink] - - 0.208ms returns 0  
[2024-Nov-21 10:14:10] [trace] [  JLink] - JLINK_HasError()  
[2024-Nov-21 10:14:10] [debug] [SeggerBackend] - read_access_port_idr
[2024-Nov-21 10:14:10] [debug] [SeggerBackend] - read_access_port_register
[2024-Nov-21 10:14:10] [debug] [SeggerBackend] - ---just_read_access_port_register
[2024-Nov-21 10:14:10] [debug] [SeggerBackend] - ---just_select_access_port_register
[2024-Nov-21 10:14:10] [debug] [SeggerBackend] - Select AP 13, DP Bank 0, AP Bank 15
[2024-Nov-21 10:14:10] [trace] [  JLink] - JLINK_CORESIGHT_WriteAPDPReg(DP reg 0x02, 0x0D0000F0)  
[2024-Nov-21 10:14:10] [trace] [  JLink] - - 0.231ms returns 0  
[2024-Nov-21 10:14:10] [trace] [  JLink] - JLINK_HasError()  
[2024-Nov-21 10:14:10] [trace] [  JLink] - JLINK_CORESIGHT_ReadAPDPReg(AP reg 0x03)  
[2024-Nov-21 10:14:10] [trace] [  JLink] - Value=0x00000000
[2024-Nov-21 10:14:10] [trace] [  JLink] - - 0.184ms returns 0  
[2024-Nov-21 10:14:10] [trace] [  JLink] - JLINK_HasError()  
[2024-Nov-21 10:14:10] [debug] [SeggerBackend] - read_access_port_register
[2024-Nov-21 10:14:10] [debug] [SeggerBackend] - ---just_read_access_port_register
[2024-Nov-21 10:14:10] [debug] [SeggerBackend] - ---just_select_access_port_register
[2024-Nov-21 10:14:10] [debug] [SeggerBackend] - Select AP 13, DP Bank 0, AP Bank 0
[2024-Nov-21 10:14:10] [trace] [  JLink] - JLINK_CORESIGHT_WriteAPDPReg(DP reg 0x02, 0x0D000000)  
[2024-Nov-21 10:14:10] [trace] [  JLink] - - 0.154ms returns 0  
[2024-Nov-21 10:14:10] [trace] [  JLink] - JLINK_HasError()  
[2024-Nov-21 10:14:10] [trace] [  JLink] - JLINK_CORESIGHT_ReadAPDPReg(AP reg 0x00)  
[2024-Nov-21 10:14:10] [trace] [  JLink] - Value=0x00000000
[2024-Nov-21 10:14:10] [trace] [  JLink] - - 0.186ms returns 0  
[2024-Nov-21 10:14:10] [trace] [  JLink] - JLINK_HasError()  
[2024-Nov-21 10:14:10] [debug] [SeggerBackend] - read_access_port_idr
[2024-Nov-21 10:14:10] [debug] [SeggerBackend] - read_access_port_register
[2024-Nov-21 10:14:10] [debug] [SeggerBackend] - ---just_read_access_port_register
[2024-Nov-21 10:14:10] [debug] [SeggerBackend] - ---just_select_access_port_register
[2024-Nov-21 10:14:10] [debug] [SeggerBackend] - Select AP 14, DP Bank 0, AP Bank 15
[2024-Nov-21 10:14:10] [trace] [  JLink] - JLINK_CORESIGHT_WriteAPDPReg(DP reg 0x02, 0x0E0000F0)  
[2024-Nov-21 10:14:10] [trace] [  JLink] - - 0.204ms returns 0  
[2024-Nov-21 10:14:10] [trace] [  JLink] - JLINK_HasError()  
[2024-Nov-21 10:14:10] [trace] [  JLink] - JLINK_CORESIGHT_ReadAPDPReg(AP reg 0x03)  
[2024-Nov-21 10:14:10] [trace] [  JLink] - Value=0x00000000
[2024-Nov-21 10:14:10] [trace] [  JLink] - - 0.258ms returns 0  
[2024-Nov-21 10:14:10] [trace] [  JLink] - JLINK_HasError()  
[2024-Nov-21 10:14:10] [debug] [SeggerBackend] - read_access_port_register
[2024-Nov-21 10:14:10] [debug] [SeggerBackend] - ---just_read_access_port_register
[2024-Nov-21 10:14:10] [debug] [SeggerBackend] - ---just_select_access_port_register
[2024-Nov-21 10:14:10] [debug] [SeggerBackend] - Select AP 14, DP Bank 0, AP Bank 0
[2024-Nov-21 10:14:10] [trace] [  JLink] - JLINK_CORESIGHT_WriteAPDPReg(DP reg 0x02, 0x0E000000)  
[2024-Nov-21 10:14:10] [trace] [  JLink] - - 0.149ms returns 0  
[2024-Nov-21 10:14:10] [trace] [  JLink] - JLINK_HasError()  
[2024-Nov-21 10:14:10] [trace] [  JLink] - JLINK_CORESIGHT_ReadAPDPReg(AP reg 0x00)  
[2024-Nov-21 10:14:10] [trace] [  JLink] - Value=0x00000000
[2024-Nov-21 10:14:10] [trace] [  JLink] - - 0.197ms returns 0  
[2024-Nov-21 10:14:10] [trace] [  JLink] - JLINK_HasError()  
[2024-Nov-21 10:14:10] [debug] [SeggerBackend] - read_access_port_idr
[2024-Nov-21 10:14:10] [debug] [SeggerBackend] - read_access_port_register
[2024-Nov-21 10:14:10] [debug] [SeggerBackend] - ---just_read_access_port_register
[2024-Nov-21 10:14:10] [debug] [SeggerBackend] - ---just_select_access_port_register
[2024-Nov-21 10:14:10] [debug] [SeggerBackend] - Select AP 15, DP Bank 0, AP Bank 15
[2024-Nov-21 10:14:10] [trace] [  JLink] - JLINK_CORESIGHT_WriteAPDPReg(DP reg 0x02, 0x0F0000F0)  
[2024-Nov-21 10:14:10] [trace] [  JLink] - - 0.191ms returns 0  
[2024-Nov-21 10:14:10] [trace] [  JLink] - JLINK_HasError()  
[2024-Nov-21 10:14:10] [trace] [  JLink] - JLINK_CORESIGHT_ReadAPDPReg(AP reg 0x03)  
[2024-Nov-21 10:14:10] [trace] [  JLink] - Value=0x00000000
[2024-Nov-21 10:14:10] [trace] [  JLink] - - 0.308ms returns 0  
[2024-Nov-21 10:14:10] [trace] [  JLink] - JLINK_HasError()  
[2024-Nov-21 10:14:10] [debug] [SeggerBackend] - read_access_port_register
[2024-Nov-21 10:14:10] [debug] [SeggerBackend] - ---just_read_access_port_register
[2024-Nov-21 10:14:10] [debug] [SeggerBackend] - ---just_select_access_port_register
[2024-Nov-21 10:14:10] [debug] [SeggerBackend] - Select AP 15, DP Bank 0, AP Bank 0
[2024-Nov-21 10:14:10] [trace] [  JLink] - JLINK_CORESIGHT_WriteAPDPReg(DP reg 0x02, 0x0F000000)  
[2024-Nov-21 10:14:10] [trace] [  JLink] - - 0.160ms returns 0  
[2024-Nov-21 10:14:10] [trace] [  JLink] - JLINK_HasError()  
[2024-Nov-21 10:14:10] [trace] [  JLink] - JLINK_CORESIGHT_ReadAPDPReg(AP reg 0x00)  
[2024-Nov-21 10:14:10] [trace] [  JLink] - Value=0x00000000
[2024-Nov-21 10:14:10] [trace] [  JLink] - - 0.188ms returns 0  
[2024-Nov-21 10:14:10] [trace] [  JLink] - JLINK_HasError()  
[2024-Nov-21 10:14:10] [debug] [SeggerBackend] - read_access_port_idr
[2024-Nov-21 10:14:10] [debug] [SeggerBackend] - read_access_port_register
[2024-Nov-21 10:14:10] [debug] [SeggerBackend] - ---just_read_access_port_register
[2024-Nov-21 10:14:10] [debug] [SeggerBackend] - ---just_select_access_port_register
[2024-Nov-21 10:14:10] [debug] [SeggerBackend] - Select AP 16, DP Bank 0, AP Bank 15
[2024-Nov-21 10:14:10] [trace] [  JLink] - JLINK_CORESIGHT_WriteAPDPReg(DP reg 0x02, 0x100000F0)  
[2024-Nov-21 10:14:10] [trace] [  JLink] - - 0.157ms returns 0  
[2024-Nov-21 10:14:10] [trace] [  JLink] - JLINK_HasError()  
[2024-Nov-21 10:14:10] [trace] [  JLink] - JLINK_CORESIGHT_ReadAPDPReg(AP reg 0x03)  
[2024-Nov-21 10:14:10] [trace] [  JLink] - Value=0x00000000
[2024-Nov-21 10:14:10] [trace] [  JLink] - - 0.192ms returns 0  
[2024-Nov-21 10:14:10] [trace] [  JLink] - JLINK_HasError()  
[2024-Nov-21 10:14:10] [debug] [SeggerBackend] - read_access_port_register
[2024-Nov-21 10:14:10] [debug] [SeggerBackend] - ---just_read_access_port_register
[2024-Nov-21 10:14:10] [debug] [SeggerBackend] - ---just_select_access_port_register
[2024-Nov-21 10:14:10] [debug] [SeggerBackend] - Select AP 16, DP Bank 0, AP Bank 0
[2024-Nov-21 10:14:10] [trace] [  JLink] - JLINK_CORESIGHT_WriteAPDPReg(DP reg 0x02, 0x10000000)  
[2024-Nov-21 10:14:10] [trace] [  JLink] - - 0.268ms returns 0  
[2024-Nov-21 10:14:10] [trace] [  JLink] - JLINK_HasError()  
[2024-Nov-21 10:14:10] [trace] [  JLink] - JLINK_CORESIGHT_ReadAPDPReg(AP reg 0x00)  
[2024-Nov-21 10:14:10] [trace] [  JLink] - Value=0x00000000
[2024-Nov-21 10:14:10] [trace] [  JLink] - - 0.186ms returns 0  
[2024-Nov-21 10:14:10] [trace] [  JLink] - JLINK_HasError()  
[2024-Nov-21 10:14:10] [debug] [SeggerBackend] - read_access_port_idr
[2024-Nov-21 10:14:10] [debug] [SeggerBackend] - read_access_port_register
[2024-Nov-21 10:14:10] [debug] [SeggerBackend] - ---just_read_access_port_register
[2024-Nov-21 10:14:10] [debug] [SeggerBackend] - ---just_select_access_port_register
[2024-Nov-21 10:14:10] [debug] [SeggerBackend] - Select AP 17, DP Bank 0, AP Bank 15
[2024-Nov-21 10:14:10] [trace] [  JLink] - JLINK_CORESIGHT_WriteAPDPReg(DP reg 0x02, 0x110000F0)  
[2024-Nov-21 10:14:10] [trace] [  JLink] - - 0.152ms returns 0  
[2024-Nov-21 10:14:10] [trace] [  JLink] - JLINK_HasError()  
[2024-Nov-21 10:14:10] [trace] [  JLink] - JLINK_CORESIGHT_ReadAPDPReg(AP reg 0x03)  
[2024-Nov-21 10:14:10] [trace] [  JLink] - Value=0x00000000
[2024-Nov-21 10:14:10] [trace] [  JLink] - - 0.186ms returns 0  
[2024-Nov-21 10:14:10] [trace] [  JLink] - JLINK_HasError()  
[2024-Nov-21 10:14:10] [debug] [SeggerBackend] - read_access_port_register
[2024-Nov-21 10:14:10] [debug] [SeggerBackend] - ---just_read_access_port_register
[2024-Nov-21 10:14:10] [debug] [SeggerBackend] - ---just_select_access_port_register
[2024-Nov-21 10:14:10] [debug] [SeggerBackend] - Select AP 17, DP Bank 0, AP Bank 0
[2024-Nov-21 10:14:10] [trace] [  JLink] - JLINK_CORESIGHT_WriteAPDPReg(DP reg 0x02, 0x11000000)  
[2024-Nov-21 10:14:10] [trace] [  JLink] - - 0.157ms returns 0  
[2024-Nov-21 10:14:10] [trace] [  JLink] - JLINK_HasError()  
[2024-Nov-21 10:14:10] [trace] [  JLink] - JLINK_CORESIGHT_ReadAPDPReg(AP reg 0x00)  
[2024-Nov-21 10:14:10] [trace] [  JLink] - Value=0x00000000
[2024-Nov-21 10:14:10] [trace] [  JLink] - - 0.296ms returns 0  
[2024-Nov-21 10:14:10] [trace] [  JLink] - JLINK_HasError()  
[2024-Nov-21 10:14:10] [debug] [SeggerBackend] - read_access_port_register
[2024-Nov-21 10:14:10] [debug] [SeggerBackend] - ---just_read_access_port_register
[2024-Nov-21 10:14:10] [debug] [SeggerBackend] - ---just_select_access_port_register
[2024-Nov-21 10:14:10] [debug] [SeggerBackend] - Select AP 2, DP Bank 0, AP Bank 3
[2024-Nov-21 10:14:10] [trace] [  JLink] - JLINK_CORESIGHT_WriteAPDPReg(DP reg 0x02, 0x02000030)  
[2024-Nov-21 10:14:10] [trace] [  JLink] - - 0.157ms returns 0  
[2024-Nov-21 10:14:10] [trace] [  JLink] - JLINK_HasError()  
[2024-Nov-21 10:14:10] [trace] [  JLink] - JLINK_CORESIGHT_ReadAPDPReg(AP reg 0x00)  
[2024-Nov-21 10:14:10] [trace] [  JLink] - Value=0x00000007
[2024-Nov-21 10:14:10] [trace] [  JLink] - - 0.188ms returns 0  
[2024-Nov-21 10:14:10] [trace] [  JLink] - JLINK_HasError()  
[2024-Nov-21 10:14:10] [ info] [  nRFXX] - Discovered device from family NRF53.
[2024-Nov-21 10:14:10] [trace] [  JLink] - - 0.019ms  
[2024-Nov-21 10:14:10] [debug] [  nRF53] - Just_load_coprocessor_data
[2024-Nov-21 10:14:10] [debug] [SeggerBackend] - set_core_data
[2024-Nov-21 10:14:10] [debug] [SeggerBackend] - Set core data:
[2024-Nov-21 10:14:10] [debug] [SeggerBackend] -   Device ID: Cortex-M33
[2024-Nov-21 10:14:10] [debug] [SeggerBackend] -   Expected core: 235012351
[2024-Nov-21 10:14:10] [debug] [SeggerBackend] -   Existing Expected core: 4294967295
[2024-Nov-21 10:14:10] [debug] [SeggerBackend] -   Coprocessor: APPLICATION
[2024-Nov-21 10:14:10] [debug] [SeggerBackend] -   AHB AP index: 0
[2024-Nov-21 10:14:10] [debug] [SeggerBackend] -   Core base address: 4294967295
[2024-Nov-21 10:14:10] [debug] [SeggerBackend] - ---set_coresight_ahb_ap_index
[2024-Nov-21 10:14:10] [trace] [  JLink] - JLINK_ExecCommand("CORESIGHT_SetIndexAHBAPToUse = 0", ...).   
[2024-Nov-21 10:14:10] [trace] [  JLink] - - 0.001ms returns 0x00  
[2024-Nov-21 10:14:10] [trace] [  JLink] - JLINK_HasError()  
[2024-Nov-21 10:14:10] [trace] [  JLink] - JLINK_ExecCommand("device = Cortex-M33", ...).   
[2024-Nov-21 10:14:10] [trace] [  JLink] - Device "CORTEX-M33" selected.
[2024-Nov-21 10:14:10] [trace] [  JLink] - Device "CORTEX-M33" selected.
[2024-Nov-21 10:14:10] [trace] [  JLink] - - 3.777ms returns 0x00  
[2024-Nov-21 10:14:10] [trace] [  JLink] - JLINK_HasError()  
[2024-Nov-21 10:14:10] [trace] [ Worker] - Command connect_to_emu_with_snr executed for 1191 milliseconds with result 0
[2024-Nov-21 10:14:10] [debug] [  nRF53] - read_connected_emu_snr
[2024-Nov-21 10:14:10] [debug] [SeggerBackend] - is_connected_to_emu
[2024-Nov-21 10:14:10] [trace] [  JLink] - JLINK_IsOpen()  
[2024-Nov-21 10:14:10] [trace] [  JLink] - - 0.003ms returns 0x01  
[2024-Nov-21 10:14:10] [trace] [  JLink] - JLINK_HasError()  
[2024-Nov-21 10:14:10] [trace] [  JLink] - JLINK_Lock()  
[2024-Nov-21 10:14:10] [debug] [SeggerBackend] - read_connected_emu_snr
[2024-Nov-21 10:14:10] [trace] [  JLink] - - 0.001ms  
[2024-Nov-21 10:14:10] [trace] [ Worker] - Command read_connected_emu_snr executed for 0 milliseconds with result 0
[2024-Nov-21 10:14:10] [debug] [  nRF53] - read_device_family
[2024-Nov-21 10:14:10] [trace] [ Worker] - Command read_device_family executed for 0 milliseconds with result 0
[2024-Nov-21 10:14:10] [debug] [  nRF53] - Just_load_coprocessor_data
[2024-Nov-21 10:14:10] [debug] [SeggerBackend] - set_core_data
[2024-Nov-21 10:14:10] [debug] [SeggerBackend] - Set core data:
[2024-Nov-21 10:14:10] [debug] [SeggerBackend] -   Device ID: Cortex-M33
[2024-Nov-21 10:14:10] [debug] [SeggerBackend] -   Expected core: 235012351
[2024-Nov-21 10:14:10] [debug] [SeggerBackend] -   Existing Expected core: 235012351
[2024-Nov-21 10:14:10] [debug] [SeggerBackend] -   Coprocessor: APPLICATION
[2024-Nov-21 10:14:10] [debug] [SeggerBackend] -   AHB AP index: 0
[2024-Nov-21 10:14:10] [debug] [SeggerBackend] -   Core base address: 4294967295
[2024-Nov-21 10:14:10] [trace] [ Worker] - Command select_family executed for 0 milliseconds with result 0
[2024-Nov-21 10:14:10] [debug] [  nRF53] - recover
[2024-Nov-21 10:14:10] [debug] [SeggerBackend] - is_connected_to_emu
[2024-Nov-21 10:14:10] [trace] [  JLink] - JLINK_IsOpen()  
[2024-Nov-21 10:14:10] [trace] [  JLink] - - 0.007ms returns 0x01  
[2024-Nov-21 10:14:10] [trace] [  JLink] - JLINK_HasError()  
[2024-Nov-21 10:14:10] [trace] [  JLink] - JLINK_Lock()  
[2024-Nov-21 10:14:10] [debug] [SeggerBackend] - is_connected_to_emu
[2024-Nov-21 10:14:10] [debug] [  nRF53] - just_recover
[2024-Nov-21 10:14:10] [debug] [  nRF53] - Just_is_eraseprotect_enabled
[2024-Nov-21 10:14:10] [debug] [SeggerBackend] - read_access_port_register
[2024-Nov-21 10:14:10] [debug] [SeggerBackend] - ---just_read_access_port_register
[2024-Nov-21 10:14:10] [debug] [SeggerBackend] - ---just_is_debug_region_powered
[2024-Nov-21 10:14:10] [debug] [SeggerBackend] - ---just_read_debug_port_register
[2024-Nov-21 10:14:10] [debug] [SeggerBackend] - ---just_select_debug_port_register
[2024-Nov-21 10:14:10] [debug] [SeggerBackend] - Select AP 255, DP Bank 0, AP Bank 255
[2024-Nov-21 10:14:10] [trace] [  JLink] - JLINK_CORESIGHT_WriteAPDPReg(DP reg 0x02, 0x00000000)  
[2024-Nov-21 10:14:10] [trace] [  JLink] - - 0.247ms returns 0  
[2024-Nov-21 10:14:10] [trace] [  JLink] - JLINK_HasError()  
[2024-Nov-21 10:14:10] [trace] [  JLink] - JLINK_CORESIGHT_ReadAPDPReg(DP reg 0x01)  
[2024-Nov-21 10:14:10] [trace] [  JLink] - Value=0xF0000040
[2024-Nov-21 10:14:10] [trace] [  JLink] - - 0.245ms returns 0  
[2024-Nov-21 10:14:10] [trace] [  JLink] - JLINK_HasError()  
[2024-Nov-21 10:14:10] [debug] [SeggerBackend] - ---just_select_access_port_register
[2024-Nov-21 10:14:10] [debug] [SeggerBackend] - Select AP 2, DP Bank 0, AP Bank 1
[2024-Nov-21 10:14:10] [trace] [  JLink] - JLINK_CORESIGHT_WriteAPDPReg(DP reg 0x02, 0x02000010)  
[2024-Nov-21 10:14:10] [trace] [  JLink] - - 0.219ms returns 0  
[2024-Nov-21 10:14:10] [trace] [  JLink] - JLINK_HasError()  
[2024-Nov-21 10:14:10] [trace] [  JLink] - JLINK_CORESIGHT_ReadAPDPReg(AP reg 0x02)  
[2024-Nov-21 10:14:10] [trace] [  JLink] - Value=0x00000001
[2024-Nov-21 10:14:10] [trace] [  JLink] - - 0.237ms returns 0  
[2024-Nov-21 10:14:10] [trace] [  JLink] - JLINK_HasError()  
[2024-Nov-21 10:14:10] [debug] [  nRF53] - Eraseaprotect is disabled
[2024-Nov-21 10:14:10] [debug] [  nRF53] - Just_disable_accessportprotect
[2024-Nov-21 10:14:10] [debug] [SeggerBackend] - write_access_port_register
[2024-Nov-21 10:14:10] [debug] [SeggerBackend] - ---just_write_access_port_register
[2024-Nov-21 10:14:10] [debug] [SeggerBackend] - ---just_select_access_port_register
[2024-Nov-21 10:14:10] [debug] [SeggerBackend] - Select AP 2, DP Bank 0, AP Bank 0
[2024-Nov-21 10:14:10] [trace] [  JLink] - JLINK_CORESIGHT_WriteAPDPReg(DP reg 0x02, 0x02000000)  
[2024-Nov-21 10:14:10] [trace] [  JLink] - - 0.193ms returns 0  
[2024-Nov-21 10:14:10] [trace] [  JLink] - JLINK_HasError()  
[2024-Nov-21 10:14:10] [trace] [  JLink] - JLINK_CORESIGHT_WriteAPDPReg(AP reg 0x01, 0x00000001)  
[2024-Nov-21 10:14:10] [trace] [  JLink] - - 0.355ms returns 0  
[2024-Nov-21 10:14:10] [trace] [  JLink] - JLINK_HasError()  
[2024-Nov-21 10:14:10] [debug] [SeggerBackend] - read_access_port_register
[2024-Nov-21 10:14:10] [debug] [SeggerBackend] - ---just_read_access_port_register
[2024-Nov-21 10:14:10] [debug] [SeggerBackend] - ---just_select_access_port_register
[2024-Nov-21 10:14:10] [trace] [  JLink] - JLINK_CORESIGHT_ReadAPDPReg(AP reg 0x02)  
[2024-Nov-21 10:14:10] [trace] [  JLink] - Value=0x00000001
[2024-Nov-21 10:14:10] [trace] [  JLink] - - 1.546ms returns 0  
[2024-Nov-21 10:14:10] [trace] [  JLink] - JLINK_HasError()  
[2024-Nov-21 10:14:11] [debug] [SeggerBackend] - read_access_port_register
[2024-Nov-21 10:14:11] [debug] [SeggerBackend] - ---just_read_access_port_register
[2024-Nov-21 10:14:11] [debug] [SeggerBackend] - ---just_select_access_port_register
[2024-Nov-21 10:14:11] [trace] [  JLink] - JLINK_CORESIGHT_ReadAPDPReg(AP reg 0x02)  
[2024-Nov-21 10:14:11] [trace] [  JLink] - Value=0x00000000
